
T4294 066:297 SEGGER J-Link V6.32d Log File (0000ms, 0259ms total)
T4294 066:297 DLL Compiled: May 25 2018 17:03:12 (0000ms, 0259ms total)
T4294 066:297 Logging started @ 2018-06-08 08:11 (0000ms, 0259ms total)
T4294 066:379 JLINK_ExecCommand("Device = ATSAMD10D14AM", ...).   returns 0x00 (0007ms, 0266ms total)
T4294 066:414 JLINK_ExecCommand("ProjectFile = C:\Users\raghu\Documents\Atmel Studio\7.0\Current\HummingBit_SPI_LED_ORB\HummingBit\jlink.config", ...).   returns 0x00 (0004ms, 0270ms total)
T4294 066:498 JLINK_ExecCommand("Device = ATSAMD10D14AM", ...).   returns 0x00 (0001ms, 0271ms total)
T4294 066:499 JLINK_TIF_Select(JLINKARM_TIF_SWD)  returns 0x00 (0002ms, 0273ms total)
T4294 066:501 JLINK_SetSpeed(4000) (0000ms, 0273ms total)
T4294 066:501 JLINK_ResetPullsRESET(OFF) (0000ms, 0273ms total)
T4294 066:501 JLINK_Connect()InitTarget() >0x10B TIF>Found SW-DP with ID 0x0BC11477 >0x0D TIF> >0x28 TIF> >0x0D TIF> >0x28 TIF> >0x0D TIF> >0x28 TIF> >0x0D TIF> >0x28 TIF> >0x0D TIF> >0x21 TIF> >0x0D TIF> >0x28 TIF>Scanning AP map to find all available APs >0x0D TIF> >0x28 TIF> >0x0D TIF> >0x21 TIF> >0x0D TIF> >0x21 TIF> >0x0D TIF> >0x28 TIF> >0x0D TIF> >0x21 TIF> >0x0D TIF> >0x21 TIF>AP[1]: Stopped AP scan as end of AP map has been reachedAP[0]: AHB-AP (IDR: 0x04770031)
Iterating through AP map to find AHB-AP to use >0x42 TIF> >0x28 TIF> >0x0D TIF> >0x28 TIF> >0x0D TIF> >0x21 TIF> >0x0D TIF> >0x21 TIF> >0x42 TIF> >0x28 TIF> >0x0D TIF> >0x28 TIF> >0x0D TIF> >0x28 TIF> >0x0D TIF> >0x21 TIF> >0x0D TIF> >0x21 TIF>AP[0]: Core foundAP[0]: AHB-AP ROM base: 0x41003000 >0x0D TIF> >0x28 TIF> >0x0D TIF> >0x28 TIF> >0x0D TIF> >0x28 TIF> >0x0D TIF> >0x21 TIF> >0x0D TIF> >0x21 TIF>CPUID register: 0x410CC601. Implementer code: 0x41 (ARM)Found Cortex-M0 r0p1, Little endian.
 -- CPU_ReadMem(4 bytes @ 0xE000EDF0) -- CPU_ReadMem(4 bytes @ 0xE0002000) -- CPU_ReadMem(4 bytes @ 0xE000EDFC) -- CPU_ReadMem(4 bytes @ 0xE0001000) -- CPU_WriteMem(4 bytes @ 0xE0001000)CoreSight components:ROMTbl[0] @ 41003000 -- CPU_ReadMem(16 bytes @ 0x41003000) -- CPU_ReadMem(16 bytes @ 0xE00FFFF0) -- CPU_ReadMem(16 bytes @ 0xE00FFFE0)ROMTbl[0][0]: E00FF000, CID: B105100D, PID: 000BB4C0 ROM TableROMTbl[1] @ E00FF000 -- CPU_ReadMem(16 bytes @ 0xE00FF000) -- CPU_ReadMem(16 bytes @ 0xE000EFF0)
 -- CPU_ReadMem(16 bytes @ 0xE000EFE0)ROMTbl[1][0]: E000E000, CID: B105E00D, PID: 000BB008 SCS -- CPU_ReadMem(16 bytes @ 0xE0001FF0) -- CPU_ReadMem(16 bytes @ 0xE0001FE0)ROMTbl[1][1]: E0001000, CID: B105E00D, PID: 000BB00A DWT -- CPU_ReadMem(16 bytes @ 0xE0002FF0) -- CPU_ReadMem(16 bytes @ 0xE0002FE0)ROMTbl[1][2]: E0002000, CID: B105E00D, PID: 000BB00B FPB -- CPU_ReadMem(16 bytes @ 0x41006FF0) -- CPU_ReadMem(16 bytes @ 0x41006FE0)ROMTbl[0][1]: 41006000, CID: B105900D, PID: 001BB932 MTB-M0+  returns 0x00
 (0131ms, 0404ms total)
T4294 066:632 JLINK_Halt()  returns 0x00 (0003ms, 0407ms total)
T4294 066:646 JLINK_JTAG_GetDeviceID(DeviceIndex = 0)  returns 0x00 (0000ms, 0407ms total)
T4294 066:646 JLINK_ReadMemU32(0x41002018, 0x0001 Items, ...) -- CPU_ReadMem(4 bytes @ 0x41002018) - Data: 00 01 02 10  returns 0x01 (0001ms, 0408ms total)
T1290 066:656 JLINK_IsHalted()  returns TRUE (0000ms, 0408ms total)
T1290 066:656 JLINK_GetMOEs(...) -- CPU_ReadMem(4 bytes @ 0xE000ED30)  returns 0x01 (0000ms, 0408ms total)
T1290 066:657 JLINK_ReadReg(R15 (PC))  returns 0x000000F0 (0000ms, 0408ms total)
T4294 066:693 JLINK_BeginDownload(Flags = 0x00) (0000ms, 0408ms total)
T4294 066:693 JLINK_WriteMem(0x00000800, 0x3434 Bytes, ...) - Data: 50 08 00 20 99 34 00 00 95 34 00 00 95 34 00 00 ...  returns 0x3434 (0001ms, 0409ms total)
T4294 066:694 JLINK_WriteMem(0x00003C34, 0x0074 Bytes, ...) - Data: 40 1F 00 00 08 00 00 00 08 01 41 78 01 01 01 00 ...  returns 0x74 (0000ms, 0409ms total)
T4294 066:714 JLINK_EndDownload() -- CPU_ReadMem(16 bytes @ 0x41006FE0) -- CPU_ReadMem(4 bytes @ 0x41006004) -- CPU_ReadMem(4 bytes @ 0xE000ED90) -- -------------------------------------- -- Start of determining dirty areas in flash cache -- End of determining dirty areas -- Start of preparing flash programming -- Calculating RAM usage -- RAM usage = 2804 Bytes -- Preserving CPU registers -- Preparing memory -- Preparing target -- Downloading RAMCode -- Checking target RAM -- Preparing RAMCode
 -- End of preparing flash programming -- CPU speed could not be measured. -- Start of comparing flash -- CRC check was estimated as fastest method -- Comparing range 0x0800 - 0x3CFF (53 Sectors, 13 KB), using multi-block CRC calculation -- CRC does not match for sectors 0-1, 3-52 -- Comparing range 0x0A00 - 0x0AFF (1 Sector, 256 Bytes), using alternative multi-block CRC calculation -- All CRCs match -- End of comparing flash -- Start of erasing sectors
 -- Erasing range 0x00000800 - 0x000009FF (002 Sectors, 512 Bytes) -- Erasing range 0x00000B00 - 0x00003BFF (049 Sectors, 12 KB) -- End of erasing sectors -- Start of flash programming -- Programming range 0x00000800 - 0x000009FF (002 Sectors, 512 Bytes) -- Programming range 0x00000B00 - 0x00003CFF (050 Sectors, 12 KB) -- End of flash programming -- 0x0800 - 0x09FF (002 Sectors, 512 Bytes) -- 0x0B00 - 0x3CFF (050 Sectors, 12 KB) -- Start of verifying flash -- Use CRC as verify method
 -- Checksum is not supported by this flash bank. Switched to CRC method. -- Use CRC as verify method -- Checksum is not supported by this flash bank. Switched to CRC method. -- End of verifying flash -- Start of restoring -- Restoring RAMCode -- Restore target -- Restore memory -- Restoring CPU registers -- End of restoring -- Bank 0 @ 0x00000000: 2 ranges affected (13312 bytes)
 -- Total time needed: 0.353s (Prepare: 0.036s, Compare: 0.039s, Erase: 0.049s, Program: 0.210s, Verify: 0.014s, Restore: 0.003s)  returns 0x3400 (0356ms, 0765ms total)
T1290 067:070 JLINK_IsHalted()  returns TRUE (0000ms, 0765ms total)
T1290 067:270 JLINK_IsHalted()  returns TRUE (0000ms, 0765ms total)
T1290 067:471 JLINK_IsHalted()  returns TRUE (0000ms, 0765ms total)
T2890 067:520 JLINK_Halt()  returns 0x00 (0000ms, 0765ms total)
T2890 067:520 JLINK_ReadReg(R15 (PC))  returns 0x000000F0 (0000ms, 0765ms total)
T2890 067:520 JLINK_ReadReg(R13 (SP))  returns 0x20000440 (0000ms, 0765ms total)
T2890 067:525 JLINK_ReadMemHW(0x000000F0, 0x0004 Bytes, ...) -- CPU_ReadMem(4 bytes @ 0x000000F0) - Data: 1D 48 1E 49  returns 0x00 (0001ms, 0766ms total)
T2890 067:526 JLINK_ReadReg(R0)  returns 0x00000022 (0000ms, 0766ms total)
T2890 067:526 JLINK_ReadReg(R1)  returns 0x42000C00 (0000ms, 0766ms total)
T2890 067:526 JLINK_ReadReg(R2)  returns 0x42000C00 (0000ms, 0766ms total)
T2890 067:526 JLINK_ReadReg(R3)  returns 0x00005AA2 (0000ms, 0766ms total)
T2890 067:526 JLINK_ReadReg(R4)  returns 0x41004000 (0000ms, 0766ms total)
T2890 067:526 JLINK_ReadReg(R5)  returns 0x00000001 (0000ms, 0766ms total)
T2890 067:526 JLINK_ReadReg(R6)  returns 0x000033D1 (0000ms, 0766ms total)
T2890 067:526 JLINK_ReadReg(R7)  returns 0x20000408 (0000ms, 0766ms total)
T2890 067:526 JLINK_ReadReg(R8)  returns 0x7F6F5B3F (0000ms, 0766ms total)
T2890 067:526 JLINK_ReadReg(R9)  returns 0xD9DE96CD (0000ms, 0766ms total)
T2890 067:526 JLINK_ReadReg(R10)  returns 0xADF10FB2 (0000ms, 0766ms total)
T2890 067:526 JLINK_ReadReg(R11)  returns 0xB234E6BB (0000ms, 0766ms total)
T2890 067:526 JLINK_ReadReg(R12)  returns 0x00000000 (0000ms, 0766ms total)
T2890 067:526 JLINK_ReadReg(R13 (SP))  returns 0x20000440 (0000ms, 0766ms total)
T2890 067:526 JLINK_ReadReg(R14)  returns 0x000001C7 (0000ms, 0766ms total)
T2890 067:526 JLINK_ReadReg(R15 (PC))  returns 0x000000F0 (0000ms, 0766ms total)
T2890 067:526 JLINK_ReadReg(XPSR)  returns 0x21000000 (0000ms, 0766ms total)
T2890 067:526 JLINK_ReadReg(MSP)  returns 0x20000440 (0000ms, 0766ms total)
T2890 067:526 JLINK_ReadReg(PSP)  returns 0x7AD7FBEC (0000ms, 0766ms total)
T2890 067:526 JLINK_ReadReg(PRIMASK)  returns 0x00000000 (0000ms, 0766ms total)
T2890 067:526 JLINK_ReadReg(BASEPRI)  returns 0x00000000 (0000ms, 0766ms total)
T2890 067:526 JLINK_ReadReg(FAULTMASK)  returns 0x00000000 (0000ms, 0766ms total)
T2890 067:526 JLINK_ReadReg(CONTROL)  returns 0x00000000 (0000ms, 0766ms total)
T2890 067:526 JLINK_ReadMemHW(0x000000F0, 0x0002 Bytes, ...) -- CPU_ReadMem(2 bytes @ 0x000000F0) - Data: 1D 48  returns 0x00 (0001ms, 0767ms total)
T2890 067:563 JLINK_ReadReg(R0)  returns 0x00000022 (0000ms, 0767ms total)
T2890 067:563 JLINK_ReadReg(R1)  returns 0x42000C00 (0000ms, 0767ms total)
T2890 067:563 JLINK_ReadReg(R2)  returns 0x42000C00 (0000ms, 0767ms total)
T2890 067:563 JLINK_ReadReg(R3)  returns 0x00005AA2 (0000ms, 0767ms total)
T2890 067:563 JLINK_ReadReg(R4)  returns 0x41004000 (0000ms, 0767ms total)
T2890 067:563 JLINK_ReadReg(R5)  returns 0x00000001 (0000ms, 0767ms total)
T2890 067:563 JLINK_ReadReg(R6)  returns 0x000033D1 (0000ms, 0767ms total)
T2890 067:563 JLINK_ReadReg(R7)  returns 0x20000408 (0000ms, 0767ms total)
T2890 067:563 JLINK_ReadReg(R8)  returns 0x7F6F5B3F (0000ms, 0767ms total)
T2890 067:563 JLINK_ReadReg(R9)  returns 0xD9DE96CD (0000ms, 0767ms total)
T2890 067:563 JLINK_ReadReg(R10)  returns 0xADF10FB2 (0000ms, 0767ms total)
T2890 067:563 JLINK_ReadReg(R11)  returns 0xB234E6BB (0000ms, 0767ms total)
T2890 067:563 JLINK_ReadReg(R12)  returns 0x00000000 (0000ms, 0767ms total)
T2890 067:563 JLINK_ReadReg(R13 (SP))  returns 0x20000440 (0000ms, 0767ms total)
T2890 067:563 JLINK_ReadReg(R14)  returns 0x000001C7 (0000ms, 0767ms total)
T2890 067:563 JLINK_ReadReg(R15 (PC))  returns 0x000000F0 (0000ms, 0767ms total)
T2890 067:563 JLINK_ReadReg(XPSR)  returns 0x21000000 (0000ms, 0767ms total)
T2890 067:563 JLINK_ReadReg(MSP)  returns 0x20000440 (0000ms, 0767ms total)
T2890 067:563 JLINK_ReadReg(PSP)  returns 0x7AD7FBEC (0000ms, 0767ms total)
T2890 067:563 JLINK_ReadReg(PRIMASK)  returns 0x00000000 (0000ms, 0767ms total)
T2890 067:563 JLINK_ReadReg(BASEPRI)  returns 0x00000000 (0000ms, 0767ms total)
T2890 067:563 JLINK_ReadReg(FAULTMASK)  returns 0x00000000 (0000ms, 0767ms total)
T2890 067:563 JLINK_ReadReg(CONTROL)  returns 0x00000000 (0001ms, 0768ms total)
T2890 067:564 JLINK_ReadMemHW(0x000000F0, 0x0004 Bytes, ...) -- CPU_ReadMem(4 bytes @ 0x000000F0) - Data: 1D 48 1E 49  returns 0x00 (0000ms, 0768ms total)
T2890 067:565 JLINK_ReadMemHW(0x000000F0, 0x0002 Bytes, ...) -- CPU_ReadMem(2 bytes @ 0x000000F0) - Data: 1D 48  returns 0x00 (0000ms, 0768ms total)
T2890 067:596 JLINK_Reset() -- CPU_ReadMem(4 bytes @ 0x20000684) -- CPU_WriteMem(4 bytes @ 0x20000684) -- CPU_ReadMem(4 bytes @ 0xE000EDFC) -- CPU_WriteMem(4 bytes @ 0xE000EDFC) -- CPU_WriteMem(4 bytes @ 0xE000ED0C) -- CPU_ReadMem(4 bytes @ 0xE000EDF0) -- CPU_ReadMem(4 bytes @ 0x41002100) -- CPU_WriteMem(4 bytes @ 0xE000EDFC) -- CPU_WriteMem(4 bytes @ 0xE0002000) -- CPU_ReadMem(4 bytes @ 0xE000EDFC) -- CPU_ReadMem(4 bytes @ 0xE0001000) -- CPU_WriteMem(4 bytes @ 0xE0001000) (0008ms, 0776ms total)
T1290 067:604 JLINK_IsHalted()  returns TRUE (0000ms, 0776ms total)
T1290 067:604 JLINK_GetMOEs(...) -- CPU_ReadMem(4 bytes @ 0xE000ED30)  returns 0x01 (0001ms, 0777ms total)
T1290 067:605 JLINK_ReadReg(R15 (PC))  returns 0x000000F0 (0000ms, 0777ms total)
T2890 067:615 JLINK_ReadReg(R15 (PC))  returns 0x000000F0 (0000ms, 0777ms total)
T2890 067:615 JLINK_ReadReg(R13 (SP))  returns 0x20000440 (0000ms, 0777ms total)
T2890 067:615 JLINK_ReadMemHW(0x000000F0, 0x0004 Bytes, ...) -- CPU_ReadMem(4 bytes @ 0x000000F0) - Data: 1D 48 1E 49  returns 0x00 (0000ms, 0777ms total)
T2890 067:616 JLINK_ReadReg(R0)  returns 0x40001000 (0000ms, 0777ms total)
T2890 067:616 JLINK_ReadReg(R1)  returns 0x00000000 (0000ms, 0777ms total)
T2890 067:616 JLINK_ReadReg(R2)  returns 0x00000000 (0000ms, 0777ms total)
T2890 067:616 JLINK_ReadReg(R3)  returns 0x2405C03C (0000ms, 0777ms total)
T2890 067:616 JLINK_ReadReg(R4)  returns 0x20000664 (0000ms, 0777ms total)
T2890 067:616 JLINK_ReadReg(R5)  returns 0x200006BC (0000ms, 0777ms total)
T2890 067:616 JLINK_ReadReg(R6)  returns 0x200006BC (0000ms, 0777ms total)
T2890 067:616 JLINK_ReadReg(R7)  returns 0x20000408 (0000ms, 0777ms total)
T2890 067:616 JLINK_ReadReg(R8)  returns 0x7F6F5B3F (0000ms, 0777ms total)
T2890 067:616 JLINK_ReadReg(R9)  returns 0xD9DE96CD (0000ms, 0777ms total)
T2890 067:616 JLINK_ReadReg(R10)  returns 0xADF10FB2 (0000ms, 0777ms total)
T2890 067:616 JLINK_ReadReg(R11)  returns 0xB234E6BB (0000ms, 0777ms total)
T2890 067:616 JLINK_ReadReg(R12)  returns 0x200005D8 (0000ms, 0777ms total)
T2890 067:616 JLINK_ReadReg(R13 (SP))  returns 0x20000440 (0000ms, 0777ms total)
T2890 067:616 JLINK_ReadReg(R14)  returns 0x2000032F (0000ms, 0777ms total)
T2890 067:616 JLINK_ReadReg(R15 (PC))  returns 0x000000F0 (0000ms, 0777ms total)
T2890 067:616 JLINK_ReadReg(XPSR)  returns 0x81000000 (0000ms, 0777ms total)
T2890 067:616 JLINK_ReadReg(MSP)  returns 0x20000440 (0000ms, 0777ms total)
T2890 067:616 JLINK_ReadReg(PSP)  returns 0x7AD7FBEC (0000ms, 0777ms total)
T2890 067:616 JLINK_ReadReg(PRIMASK)  returns 0x00000000 (0000ms, 0777ms total)
T2890 067:616 JLINK_ReadReg(BASEPRI)  returns 0x00000000 (0000ms, 0777ms total)
T2890 067:616 JLINK_ReadReg(FAULTMASK)  returns 0x00000000 (0000ms, 0777ms total)
T2890 067:616 JLINK_ReadReg(CONTROL)  returns 0x00000000 (0000ms, 0777ms total)
T2890 067:616 JLINK_ReadMemHW(0x000000F0, 0x0002 Bytes, ...) -- CPU_ReadMem(2 bytes @ 0x000000F0) - Data: 1D 48  returns 0x00 (0001ms, 0778ms total)
T2890 067:638 JLINK_ReadMem (0x2000032E, 0x0004 Bytes, ...) -- CPU_ReadMem(64 bytes @ 0x20000300) -- Updating C cache (64 bytes @ 0x20000300) -- Read from C cache (4 bytes @ 0x2000032E) - Data: 01 BD 70 B5  returns 0x00 (0001ms, 0779ms total)
T2890 067:640 JLINK_ReadMem (0x20000304, 0x0002 Bytes, ...) -- Read from C cache (2 bytes @ 0x20000304) - Data: 10 B5  returns 0x00 (0000ms, 0779ms total)
T2890 067:640 JLINK_ReadMem (0x20000306, 0x0002 Bytes, ...) -- Read from C cache (2 bytes @ 0x20000306) - Data: 0C 00  returns 0x00 (0000ms, 0779ms total)
T2890 067:640 JLINK_ReadMem (0x20000308, 0x0002 Bytes, ...) -- Read from C cache (2 bytes @ 0x20000308) - Data: 00 F0  returns 0x00 (0000ms, 0779ms total)
T2890 067:640 JLINK_ReadMem (0x2000030A, 0x0002 Bytes, ...) -- Read from C cache (2 bytes @ 0x2000030A) - Data: 0D F9  returns 0x00 (0000ms, 0779ms total)
T2890 067:641 JLINK_ReadMem (0x20000440, 0x0040 Bytes, ...) -- CPU_ReadMem(64 bytes @ 0x20000440) -- Updating C cache (64 bytes @ 0x20000440) -- Read from C cache (64 bytes @ 0x20000440) - Data: 28 60 00 F0 67 F8 68 69 C0 07 FA D5 00 20 F2 BD ...  returns 0x00 (0000ms, 0779ms total)
T2890 067:662 JLINK_ReadMemHW(0x0000358C, 0x0001 Bytes, ...) -- CPU_ReadMem(1 bytes @ 0x0000358C) - Data: 70  returns 0x00 (0001ms, 0780ms total)
T2890 067:725 JLINK_ReadReg(R15 (PC))  returns 0x000000F0 (0000ms, 0780ms total)
T2890 067:726 JLINK_GetNumBPUnits(Type = 0xFFFFFF02)  returns 0x04 (0000ms, 0780ms total)
T2890 067:726 JLINK_SetBPEx(Addr = 0x0000358C, Type = 0xFFFFFFF2)  returns 0x00000001 (0000ms, 0780ms total)
T2890 067:726 JLINK_GetBPInfo(BPHandle = 1)  returns 0x00 (0000ms, 0780ms total)
T2890 067:726 JLINK_Go() -- CPU_WriteMem(4 bytes @ 0xE0002000) -- CPU_ReadMem(4 bytes @ 0xE0001000) -- CPU_WriteMem(4 bytes @ 0xE000ED30) -- CPU_WriteMem(4 bytes @ 0xE0001000) -- CPU_WriteMem(4 bytes @ 0xE0002008) -- CPU_WriteMem(4 bytes @ 0xE000200C) -- CPU_WriteMem(4 bytes @ 0xE0002010) -- CPU_WriteMem(4 bytes @ 0xE0002014) -- CPU_WriteMem(4 bytes @ 0xE0001004) (0003ms, 0783ms total)
T1290 067:729 JLINK_IsHalted() -- CPU_ReadMem(4 bytes @ 0x41002100)  returns FALSE (0001ms, 0784ms total)
T1290 067:750 JLINK_IsHalted() -- CPU_ReadMem(4 bytes @ 0x41002100)  returns FALSE (0000ms, 0783ms total)
T1290 067:831 JLINK_IsHalted() -- CPU_ReadMem(4 bytes @ 0x41002100)  returns FALSE (0000ms, 0783ms total)
T1290 068:031 JLINK_IsHalted() -- CPU_ReadMem(4 bytes @ 0x41002100)  returns FALSE (0001ms, 0784ms total)
T1290 068:232 JLINK_IsHalted() -- CPU_ReadMem(4 bytes @ 0x41002100)  returns FALSE (0000ms, 0783ms total)
T1290 068:433 JLINK_IsHalted() -- CPU_ReadMem(4 bytes @ 0x41002100)  returns FALSE (0000ms, 0783ms total)
T1290 068:634 JLINK_IsHalted() -- CPU_ReadMem(4 bytes @ 0x41002100)  returns FALSE (0001ms, 0784ms total)
T1290 068:835 JLINK_IsHalted() -- CPU_ReadMem(4 bytes @ 0x41002100)  returns FALSE (0001ms, 0784ms total)
T1290 069:036 JLINK_IsHalted() -- CPU_ReadMem(4 bytes @ 0x41002100)  returns FALSE (0000ms, 0783ms total)
T1290 069:236 JLINK_IsHalted() -- CPU_ReadMem(4 bytes @ 0x41002100)  returns FALSE (0001ms, 0784ms total)
T1290 069:437 JLINK_IsHalted()  returns TRUE (0002ms, 0785ms total)
T1290 069:439 JLINK_GetMOEs(...) -- CPU_ReadMem(4 bytes @ 0xE000ED30)  returns 0x01 (0000ms, 0783ms total)
T1290 069:439 JLINK_ReadReg(R15 (PC))  returns 0x0000358C (0000ms, 0783ms total)
T2890 069:448 JLINK_ReadReg(R15 (PC))  returns 0x0000358C (0000ms, 0783ms total)
T2890 069:448 JLINK_ReadReg(R13 (SP))  returns 0x20000848 (0000ms, 0783ms total)
T2890 069:448 JLINK_ReadMemHW(0x0000358C, 0x0004 Bytes, ...) -- CPU_ReadMem(4 bytes @ 0x0000358C) - Data: 70 B5 0A 4B  returns 0x00 (0001ms, 0784ms total)
T2890 069:486 JLINK_WriteU32(0xE000EDFC, 0x01000000) -- CPU_WriteMem(4 bytes @ 0xE000EDFC)  returns 0x00 (0001ms, 0785ms total)
T2890 069:487 JLINK_ReadMem (0xE0001000, 0x0004 Bytes, ...) -- CPU_ReadMem(4 bytes @ 0xE0001000) - Data: 00 00 00 20  returns 0x00 (0001ms, 0786ms total)
T2890 069:488 JLINK_WriteU32(0xE0001000, 0x20000001)  returns 0x00 (0000ms, 0786ms total)
T2890 069:488 JLINK_WriteU32(0xE0001028, 0x00000100)  returns 0x00 (0000ms, 0786ms total)
T2890 069:488 JLINK_ReadMem (0xE0001028, 0x0004 Bytes, ...) -- CPU_WriteMem(4 bytes @ 0xE0001028) -- CPU_ReadMem(4 bytes @ 0xE0001028) - Data: 00 00 00 00  returns 0x00 (0000ms, 0786ms total)
T2890 069:488 JLINK_WriteU32(0xE0001024, 0x0000001F)  returns 0x00 (0000ms, 0786ms total)
T2890 069:488 JLINK_ReadMem (0xE0001024, 0x0004 Bytes, ...) -- CPU_WriteMem(4 bytes @ 0xE0001024) -- CPU_ReadMem(4 bytes @ 0xE0001024) - Data: 1F 00 00 00  returns 0x00 (0001ms, 0787ms total)
T2890 069:490 JLINK_WriteU32(0xE0001038, 0x00000100)  returns 0x00 (0000ms, 0787ms total)
T2890 069:490 JLINK_ReadMem (0xE0001038, 0x0004 Bytes, ...) -- CPU_WriteMem(4 bytes @ 0xE0001038) -- CPU_ReadMem(4 bytes @ 0xE0001038) - Data: 00 00 00 00  returns 0x00 (0001ms, 0788ms total)
T2890 069:491 JLINK_WriteU32(0xE0001034, 0x0000001F)  returns 0x00 (0000ms, 0788ms total)
T2890 069:491 JLINK_ReadMem (0xE0001034, 0x0004 Bytes, ...) -- CPU_WriteMem(4 bytes @ 0xE0001034) -- CPU_ReadMem(4 bytes @ 0xE0001034) - Data: 1F 00 00 00  returns 0x00 (0000ms, 0788ms total)
T2890 069:492 JLINK_WriteU32(0xE0001020, 0x00000000)  returns 0x00 (0000ms, 0788ms total)
T2890 069:492 JLINK_WriteU32(0xE0001024, 0x00000000)  returns 0x00 (0000ms, 0788ms total)
T2890 069:492 JLINK_WriteU32(0xE0001028, 0x00000000)  returns 0x00 (0000ms, 0788ms total)
T2890 069:492 JLINK_WriteU32(0xE0001030, 0x00000000)  returns 0x00 (0000ms, 0788ms total)
T2890 069:492 JLINK_WriteU32(0xE0001034, 0x00000000)  returns 0x00 (0000ms, 0788ms total)
T2890 069:492 JLINK_WriteU32(0xE0001038, 0x00000000)  returns 0x00 (0000ms, 0788ms total)
T2890 069:492 JLINK_GetBPInfo(BPHandle = 1)  returns 0x00 (0000ms, 0788ms total)
T2890 069:492 JLINK_ClrBPEx(BPHandle = 0x00000001)  returns 0x00 (0000ms, 0788ms total)
T2890 069:492 JLINK_ReadReg(R15 (PC))  returns 0x0000358C (0000ms, 0788ms total)
T2890 069:493 JLINK_Go() -- CPU_WriteMem(4 bytes @ 0xE0001000) -- CPU_ReadMem(4 bytes @ 0xE0001000) -- CPU_WriteMem(4 bytes @ 0xE000ED30) -- CPU_WriteMem(4 bytes @ 0xE0001000) -- CPU_WriteMem(4 bytes @ 0xE0001020) -- CPU_WriteMem(4 bytes @ 0xE0001030) -- CPU_WriteMem(4 bytes @ 0xE0001024) -- CPU_WriteMem(4 bytes @ 0xE0001034) -- CPU_WriteMem(4 bytes @ 0xE0001028) -- CPU_WriteMem(4 bytes @ 0xE0001038) -- CPU_WriteMem(4 bytes @ 0xE0002008) (0002ms, 0790ms total)
T1290 069:495 JLINK_IsHalted() -- CPU_ReadMem(4 bytes @ 0x41002100)  returns FALSE (0001ms, 0791ms total)
T1290 069:537 JLINK_IsHalted() -- CPU_ReadMem(4 bytes @ 0x41002100)  returns FALSE (0001ms, 0791ms total)
T1290 069:698 JLINK_IsHalted() -- CPU_ReadMem(4 bytes @ 0x41002100)  returns FALSE (0000ms, 0790ms total)
T1290 069:899 JLINK_IsHalted() -- CPU_ReadMem(4 bytes @ 0x41002100)  returns FALSE (0001ms, 0791ms total)
T1290 070:100 JLINK_IsHalted() -- CPU_ReadMem(4 bytes @ 0x41002100)  returns FALSE (0000ms, 0790ms total)
T2890 070:184 JLINK_Halt()  returns 0x00 (0002ms, 0792ms total)
T1290 070:300 JLINK_IsHalted()  returns TRUE (0000ms, 0792ms total)
T1290 070:300 JLINK_GetMOEs(...) -- CPU_ReadMem(4 bytes @ 0xE000ED30)  returns 0x01 (0001ms, 0793ms total)
T1290 070:301 JLINK_ReadReg(R15 (PC))  returns 0x00001C44 (0000ms, 0793ms total)
T4294 070:302 JLINK_ResetPullsRESET(ON) (0000ms, 0793ms total)
T4294 070:302 JLINK_ResetNoHalt()InitTarget() >0x10B TIF>Found SW-DP with ID 0x0BC11477 >0x0D TIF> >0x28 TIF> >0x0D TIF> >0x28 TIF> >0x0D TIF> >0x28 TIF> >0x0D TIF> >0x28 TIF> >0x0D TIF> >0x21 TIF> >0x0D TIF> >0x28 TIF>AP map detection skipped. Manually configured AP map found.AP[0]: AHB-AP (IDR: Not set) >0x42 TIF> >0x28 TIF> >0x0D TIF> >0x28 TIF> >0x0D TIF> >0x21 TIF> >0x0D TIF> >0x21 TIF> >0x42 TIF> >0x28 TIF> >0x0D TIF> >0x28 TIF> >0x0D TIF> >0x28 TIF> >0x0D TIF> >0x21 TIF> >0x0D TIF> >0x21 TIF>
AP[0]: Core foundAP[0]: AHB-AP ROM base: 0x41003000 >0x0D TIF> >0x28 TIF> >0x0D TIF> >0x28 TIF> >0x0D TIF> >0x28 TIF> >0x0D TIF> >0x21 TIF> >0x0D TIF> >0x21 TIF>CPUID register: 0x410CC601. Implementer code: 0x41 (ARM)Found Cortex-M0 r0p1, Little endian. -- CPU_ReadMem(4 bytes @ 0xE000EDF0) -- CPU_ReadMem(4 bytes @ 0xE0002000) -- CPU_ReadMem(4 bytes @ 0xE0001000)CoreSight components:ROMTbl[0] @ 41003000 -- CPU_ReadMem(16 bytes @ 0x41003000) -- CPU_ReadMem(16 bytes @ 0xE00FFFF0)
 -- CPU_ReadMem(16 bytes @ 0xE00FFFE0)ROMTbl[0][0]: E00FF000, CID: B105100D, PID: 000BB4C0 ROM TableROMTbl[1] @ E00FF000 -- CPU_ReadMem(16 bytes @ 0xE00FF000) -- CPU_ReadMem(16 bytes @ 0xE000EFF0) -- CPU_ReadMem(16 bytes @ 0xE000EFE0)ROMTbl[1][0]: E000E000, CID: B105E00D, PID: 000BB008 SCS -- CPU_WriteMem(4 bytes @ 0xE0001000) -- CPU_ReadMem(16 bytes @ 0xE0001FF0) -- CPU_ReadMem(16 bytes @ 0xE0001FE0)ROMTbl[1][1]: E0001000, CID: B105E00D, PID: 000BB00A DWT -- CPU_ReadMem(16 bytes @ 0xE0002FF0)
 -- CPU_ReadMem(16 bytes @ 0xE0002FE0)ROMTbl[1][2]: E0002000, CID: B105E00D, PID: 000BB00B FPB -- CPU_ReadMem(16 bytes @ 0x41006FF0) -- CPU_ReadMem(16 bytes @ 0x41006FE0)ROMTbl[0][1]: 41006000, CID: B105900D, PID: 001BB932 MTB-M0+
                JLINK_Reset() -- CPU_ReadMem(4 bytes @ 0xE000EDFC) -- CPU_WriteMem(4 bytes @ 0xE000EDFC) -- CPU_WriteMem(4 bytes @ 0xE000ED0C) -- CPU_ReadMem(4 bytes @ 0xE000EDF0) -- CPU_ReadMem(4 bytes @ 0x41002100) -- CPU_WriteMem(4 bytes @ 0xE000EDFC) -- CPU_WriteMem(4 bytes @ 0xE0002000) -- CPU_ReadMem(4 bytes @ 0xE000EDFC) -- CPU_ReadMem(4 bytes @ 0xE0001000) -- CPU_WriteMem(4 bytes @ 0xE0001000) (0007ms, 0007ms total)
                JLINK_Go() -- CPU_ReadMem(4 bytes @ 0xE0001000) -- CPU_WriteMem(4 bytes @ 0xE0001000) -- CPU_WriteMem(4 bytes @ 0xE0002008) -- CPU_WriteMem(4 bytes @ 0xE000200C) -- CPU_WriteMem(4 bytes @ 0xE0002010) -- CPU_WriteMem(4 bytes @ 0xE0002014) -- CPU_WriteMem(4 bytes @ 0xE0001004) (0002ms, 0009ms total)
               (0130ms, 0923ms total)
